T41C4 1934:962.961   SEGGER J-Link V6.80a Log File
T41C4 1934:963.020   DLL Compiled: May 29 2020 16:27:00
T41C4 1934:963.045   Logging started @ 2020-07-15 03:48
T41C4 1934:963.073 JLINK_SetWarnOutHandler(...)
T41C4 1934:963.098 - 0.037ms
T41C4 1934:963.124 JLINK_OpenEx(...)
T41C4 1934:966.813   Firmware: J-Link OB-SAM3U128-V2-NordicSemi compiled Mar 17 2020 14:43:00
T41C4 1934:968.527   Hardware: V1.00
T41C4 1934:968.567   S/N: 682405655
T41C4 1934:968.603   OEM: SEGGER
T41C4 1934:968.640   Feature(s): RDI, FlashBP, FlashDL, JFlash, GDB
T41C4 1934:969.764   TELNET listener socket opened on port 19021
T41C4 1934:973.175   WEBSRV Starting webserver
T41C4 1934:973.280   WEBSRV Failed to put socket into listener state (port 19080)
T41C4 1934:973.324   WEBSRV Failed to put socket into listener state (port 19081)
T41C4 1934:973.438   WEBSRV Webserver running on local port 19082
T41C4 1934:973.483 - 10.371ms returns "O.K."
T41C4 1934:973.812 JLINK_GetEmuCaps()
T41C4 1934:973.846 - 0.046ms returns 0xB8EA5A33
T41C4 1934:973.874 JLINK_TIF_GetAvailable(...)
T41C4 1934:974.120 - 0.260ms
T41C4 1934:974.151 JLINK_SetErrorOutHandler(...)
T41C4 1934:974.176 - 0.037ms
T41C4 1934:974.206 JLINK_ExecCommand("ProjectFile = "F:\Nordic\SDK_Test\nRF5_SDK_15.3.0_59ac345\examples\peripheral\radio_tx_rx_test_2\receiver\pca10040\blank\arm5_no_packs\JLinkSettings.ini"", ...). 
T41C4 1934:979.355 - 5.169ms returns 0x00
T41C4 1934:981.602 JLINK_ExecCommand("Device = nRF52832_xxAA", ...). 
T41C4 1934:983.771   Device "NRF52832_XXAA" selected.
T41C4 1934:988.279 - 6.666ms returns 0x00
T41C4 1934:988.321 JLINK_ExecCommand("DisableConnectionTimeout", ...). 
T41C4 1934:988.351 - 0.015ms returns 0x01
T41C4 1934:988.381 JLINK_GetHardwareVersion()
T41C4 1934:988.407 - 0.037ms returns 0x2710
T41C4 1934:988.432 JLINK_GetDLLVersion()  returns 68001
T41C4 1934:988.462 JLINK_GetFirmwareString(...)
T41C4 1934:988.487 - 0.037ms
T41C4 1934:994.953 JLINK_GetDLLVersion()  returns 68001
T41C4 1934:994.990 JLINK_GetCompileDateTime()
T41C4 1934:995.020 - 0.042ms
T41C4 1934:996.906 JLINK_GetFirmwareString(...)
T41C4 1934:996.936 - 0.042ms
T41C4 1934:998.823 JLINK_GetHardwareVersion()
T41C4 1934:998.853 - 0.042ms returns 0x2710
T41C4 1935:006.126 JLINK_TIF_Select(JLINKARM_TIF_SWD)
T41C4 1935:007.693 - 1.586ms returns 0x00
T41C4 1935:007.732 JLINK_SetSpeed(5000)
T41C4 1935:008.013 - 0.298ms
T41C4 1935:008.049 JLINK_GetId()
T41C4 1935:010.785   InitTarget() start
T41C4 1935:010.830    J-Link Script File: Executing InitTarget()
T41C4 1935:016.332   InitTarget() end
T41C4 1935:020.035   Found SW-DP with ID 0x2BA01477
T41C4 1935:028.961   DPIDR: 0x2BA01477
T41C4 1935:032.979   Scanning AP map to find all available APs
T41C4 1935:036.147   AP[2]: Stopped AP scan as end of AP map has been reached
T41C4 1935:038.086   AP[0]: AHB-AP (IDR: 0x24770011)
T41C4 1935:040.052   AP[1]: JTAG-AP (IDR: 0x02880000)
T41C4 1935:042.663   Iterating through AP map to find AHB-AP to use
T41C4 1935:045.904   AP[0]: Core found
T41C4 1935:047.930   AP[0]: AHB-AP ROM base: 0xE00FF000
T41C4 1935:053.910   CPUID register: 0x410FC241. Implementer code: 0x41 (ARM)
T41C4 1935:058.215   Found Cortex-M4 r0p1, Little endian.
T41C4 1935:160.006   -- Max. mem block: 0x00004698
T41C4 1935:160.059   CPU_ReadMem(4 bytes @ 0xE000EDF0)
T41C4 1935:160.784   CPU_WriteMem(4 bytes @ 0xE000EDF0)
T41C4 1935:161.433   CPU_ReadMem(4 bytes @ 0xE0002000)
T41C4 1935:164.668   FPUnit: 6 code (BP) slots and 2 literal slots
T41C4 1935:164.719   CPU_ReadMem(4 bytes @ 0xE000EDFC)
T41C4 1935:165.334   CPU_WriteMem(4 bytes @ 0xE000EDFC)
T41C4 1935:165.964   CPU_ReadMem(4 bytes @ 0xE0001000)
T41C4 1935:166.579   CPU_WriteMem(4 bytes @ 0xE0001000)
T41C4 1935:167.187   CPU_ReadMem(4 bytes @ 0xE000ED88)
T41C4 1935:167.807   CPU_WriteMem(4 bytes @ 0xE000ED88)
T41C4 1935:168.431   CPU_ReadMem(4 bytes @ 0xE000ED88)
T41C4 1935:169.060   CPU_WriteMem(4 bytes @ 0xE000ED88)
T41C4 1935:171.742   CoreSight components:
T41C4 1935:173.668   ROMTbl[0] @ E00FF000
T41C4 1935:173.714   CPU_ReadMem(64 bytes @ 0xE00FF000)
T41C4 1935:175.165   CPU_ReadMem(32 bytes @ 0xE000EFE0)
T41C4 1935:178.153   ROMTbl[0][0]: E000E000, CID: B105E00D, PID: 000BB000 SCS
T41C4 1935:178.199   CPU_ReadMem(32 bytes @ 0xE0001FE0)
T41C4 1935:181.100   ROMTbl[0][1]: E0001000, CID: B105E00D, PID: 003BB002 DWT
T41C4 1935:181.144   CPU_ReadMem(32 bytes @ 0xE0002FE0)
T41C4 1935:183.988   ROMTbl[0][2]: E0002000, CID: B105E00D, PID: 002BB003 FPB
T41C4 1935:184.305 - 176.270ms   returns 0x2BA01477
T41C4 1935:184.339 JLINK_GetDLLVersion()  returns 68001
T41C4 1935:184.388 JLINK_CORE_GetFound()
T41C4 1935:184.418 - 0.043ms returns 0xE0000FF
T41C4 1935:184.445 JLINK_GetDebugInfo(0x100 = JLINKARM_ROM_TABLE_ADDR_INDEX)
T41C4 1935:184.471   Value=0xE00FF000
T41C4 1935:184.507 - 0.074ms returns 0x00
T41C4 1935:186.500 JLINK_GetDebugInfo(0x100 = JLINKARM_ROM_TABLE_ADDR_INDEX)
T41C4 1935:186.533   Value=0xE00FF000
T41C4 1935:186.569 - 0.081ms returns 0x00
T41C4 1935:186.595 JLINK_GetDebugInfo(0x101 = JLINKARM_DEBUG_INFO_ETM_ADDR_INDEX)
T41C4 1935:186.620   Value=0x00000000
T41C4 1935:186.656 - 0.073ms returns 0x00
T41C4 1935:186.685   JLINK_ReadMemEx(0xE0041FF0, 0x0010 Bytes, ..., Flags = 0x02000004)
T41C4 1935:186.729   CPU_ReadMem(16 bytes @ 0xE0041FF0)
T41C4 1935:187.510   Data:  00 00 00 00 00 00 00 00 00 00 00 00 00 00 00 00
T41C4 1935:187.555 - 0.883ms returns 0x10
T41C4 1935:187.584 JLINK_GetDebugInfo(0x102 = JLINKARM_DEBUG_INFO_MTB_ADDR_INDEX)
T41C4 1935:187.610   Value=0x00000000
T41C4 1935:187.645 - 0.074ms returns 0x00
T41C4 1935:187.671 JLINK_GetDebugInfo(0x103 = JLINKARM_DEBUG_INFO_TPIU_ADDR_INDEX)
T41C4 1935:187.696   Value=0x00000000
T41C4 1935:187.732 - 0.073ms returns 0x00
T41C4 1935:187.758   JLINK_ReadMemEx(0xE0040FF0, 0x0010 Bytes, ..., Flags = 0x02000004)
T41C4 1935:187.800   CPU_ReadMem(16 bytes @ 0xE0040FF0)
T41C4 1935:188.586   Data:  00 00 00 00 00 00 00 00 00 00 00 00 00 00 00 00
T41C4 1935:188.626 - 0.880ms returns 0x10
T41C4 1935:188.653 JLINK_GetDebugInfo(0x104 = JLINKARM_DEBUG_INFO_ITM_ADDR_INDEX)
T41C4 1935:188.678   Value=0xE0000000
T41C4 1935:188.714 - 0.073ms returns 0x00
T41C4 1935:188.739 JLINK_GetDebugInfo(0x105 = JLINKARM_DEBUG_INFO_DWT_ADDR_INDEX)
T41C4 1935:188.764   Value=0xE0001000
T41C4 1935:188.801 - 0.073ms returns 0x00
T41C4 1935:188.826 JLINK_GetDebugInfo(0x106 = JLINKARM_DEBUG_INFO_FPB_ADDR_INDEX)
T41C4 1935:188.851   Value=0xE0002000
T41C4 1935:188.886 - 0.073ms returns 0x00
T41C4 1935:188.912 JLINK_GetDebugInfo(0x107 = JLINKARM_DEBUG_INFO_NVIC_ADDR_INDEX)
T41C4 1935:188.937   Value=0xE000E000
T41C4 1935:188.973 - 0.073ms returns 0x00
T41C4 1935:188.998 JLINK_GetDebugInfo(0x10C = JLINKARM_DEBUG_INFO_DBG_ADDR_INDEX)
T41C4 1935:189.023   Value=0xE000EDF0
T41C4 1935:189.059 - 0.073ms returns 0x00
T41C4 1935:189.085 JLINK_GetDebugInfo(0x01 = Unknown)
T41C4 1935:189.110   Value=0x00000001
T41C4 1935:189.146 - 0.073ms returns 0x00
T41C4 1935:189.177 JLINK_ReadMemU32(0xE000ED00, 0x0001 Items, ...)
T41C4 1935:189.206   CPU_ReadMem(4 bytes @ 0xE000ED00)
T41C4 1935:189.808   Data:  41 C2 0F 41
T41C4 1935:189.852   Debug reg: CPUID
T41C4 1935:189.888 - 0.724ms returns 1
T41C4 1935:189.916 JLINK_GetDebugInfo(0x10F = JLINKARM_DEBUG_INFO_HAS_CORTEX_M_SECURITY_EXT_INDEX)
T41C4 1935:189.941   Value=0x00000000
T41C4 1935:189.977 - 0.073ms returns 0x00
T41C4 1935:190.009 JLINK_SetResetType(JLINKARM_CM3_RESET_TYPE_NORMAL)
T41C4 1935:190.034 - 0.037ms returns JLINKARM_CM3_RESET_TYPE_NORMAL
T41C4 1935:190.061 JLINK_Reset()
T41C4 1935:190.092   CPU is running
T41C4 1935:190.131   CPU_WriteMem(4 bytes @ 0xE000EDF0)
T41C4 1935:190.754   CPU is running
T41C4 1935:190.795   CPU_WriteMem(4 bytes @ 0xE000EDFC)
T41C4 1935:193.893   Reset: Halt core after reset via DEMCR.VC_CORERESET.
T41C4 1935:197.192   Reset: Reset device via AIRCR.SYSRESETREQ.
T41C4 1935:197.242   CPU is running
T41C4 1935:197.281   CPU_WriteMem(4 bytes @ 0xE000ED0C)
T41C4 1935:250.891   CPU_ReadMem(4 bytes @ 0xE000EDF0)
T41C4 1935:251.581   CPU_ReadMem(4 bytes @ 0xE000EDF0)
T41C4 1935:252.242   CPU is running
T41C4 1935:252.304   CPU_WriteMem(4 bytes @ 0xE000EDF0)
T41C4 1935:253.011   CPU is running
T41C4 1935:253.053   CPU_WriteMem(4 bytes @ 0xE000EDFC)
T41C4 1935:259.210   CPU_ReadMem(4 bytes @ 0xE000EDF0)
T41C4 1935:266.204   CPU_WriteMem(4 bytes @ 0xE0002000)
T41C4 1935:266.807   CPU_ReadMem(4 bytes @ 0xE000EDFC)
T41C4 1935:267.430   CPU_ReadMem(4 bytes @ 0xE0001000)
T41C4 1935:268.036 - 77.989ms
T41C4 1935:268.091 JLINK_Halt()
T41C4 1935:268.118 - 0.039ms returns 0x00
T41C4 1935:268.144 JLINK_ReadMemU32(0xE000EDF0, 0x0001 Items, ...)
T41C4 1935:268.174   CPU_ReadMem(4 bytes @ 0xE000EDF0)
T41C4 1935:268.785   Data:  03 00 03 00
T41C4 1935:268.825   Debug reg: DHCSR
T41C4 1935:268.860 - 0.728ms returns 1
T41C4 1935:268.888 JLINK_WriteU32(0xE000EDF0, 0xA05F0003)
T41C4 1935:268.914   Debug reg: DHCSR
T41C4 1935:268.956   CPU_WriteMem(4 bytes @ 0xE000EDF0)
T41C4 1935:269.564 - 0.693ms returns 0
T41C4 1935:269.598 JLINK_WriteU32(0xE000EDFC, 0x01000000)
T41C4 1935:269.624   Debug reg: DEMCR
T41C4 1935:269.669   CPU_WriteMem(4 bytes @ 0xE000EDFC)
T41C4 1935:270.288 - 0.708ms returns 0
T41C4 1935:279.066 JLINK_GetHWStatus(...)
T41C4 1935:279.351 - 0.300ms returns 0x00
T41C4 1935:284.728 JLINK_GetNumBPUnits(Type = 0xFFFFFF00)
T41C4 1935:284.761 - 0.045ms returns 0x06
T41C4 1935:284.787 JLINK_GetNumBPUnits(Type = 0xF0)
T41C4 1935:284.811 - 0.037ms returns 0x2000
T41C4 1935:284.838 JLINK_GetNumWPUnits()
T41C4 1935:284.862 - 0.037ms returns 0x04
T41C4 1935:290.788 JLINK_GetSpeed()
T41C4 1935:290.826 - 0.050ms returns 0x3E8
T41C4 1935:294.394 JLINK_ReadMemU32(0xE000E004, 0x0001 Items, ...)
T41C4 1935:294.435   CPU_ReadMem(4 bytes @ 0xE000E004)
T41C4 1935:295.145   Data:  00 00 00 00
T41C4 1935:295.184 - 0.802ms returns 1
T41C4 1935:295.211 JLINK_ReadMemU32(0xE000E004, 0x0001 Items, ...)
T41C4 1935:295.238   CPU_ReadMem(4 bytes @ 0xE000E004)
T41C4 1935:295.908   Data:  00 00 00 00
T41C4 1935:295.947 - 0.748ms returns 1
T41C4 1935:295.975 JLINK_WriteMemEx(0xE0001000, 0x001C Bytes, ..., Flags = 0x02000004)
T41C4 1935:296.000   Data:  01 00 00 00 00 00 00 00 00 00 00 00 00 00 00 00 ...
T41C4 1935:296.320   CPU_WriteMem(28 bytes @ 0xE0001000)
T41C4 1935:297.261 - 1.301ms returns 0x1C
T41C4 1935:297.294 JLINK_Halt()
T41C4 1935:297.320 - 0.038ms returns 0x00
T41C4 1935:297.347 JLINK_IsHalted()
T41C4 1935:297.372 - 0.038ms returns TRUE
T41C4 1935:299.393 JLINK_WriteMem(0x20000000, 0x0708 Bytes, ...)
T41C4 1935:299.422   Data:  00 BE 0A E0 0D 78 2D 06 68 40 08 24 40 00 00 D3 ...
T41C4 1935:299.738   CPU_WriteMem(1800 bytes @ 0x20000000)
T41C4 1935:324.391 - 25.029ms returns 0x708
T41C4 1935:324.551 JLINK_WriteReg(R0, 0x00000000)
T41C4 1935:324.586 - 0.048ms returns 0x00
T41C4 1935:324.612 JLINK_WriteReg(R1, 0x03D09000)
T41C4 1935:324.637 - 0.037ms returns 0x00
T41C4 1935:324.663 JLINK_WriteReg(R2, 0x00000001)
T41C4 1935:324.688 - 0.037ms returns 0x00
T41C4 1935:324.713 JLINK_WriteReg(R3, 0x00000000)
T41C4 1935:324.738 - 0.037ms returns 0x00
T41C4 1935:324.763 JLINK_WriteReg(R4, 0x00000000)
T41C4 1935:324.788 - 0.037ms returns 0x00
T41C4 1935:324.813 JLINK_WriteReg(R5, 0x00000000)
T41C4 1935:324.838 - 0.036ms returns 0x00
T41C4 1935:324.864 JLINK_WriteReg(R6, 0x00000000)
T41C4 1935:324.888 - 0.037ms returns 0x00
T41C4 1935:324.914 JLINK_WriteReg(R7, 0x00000000)
T41C4 1935:324.938 - 0.037ms returns 0x00
T41C4 1935:324.964 JLINK_WriteReg(R8, 0x00000000)
T41C4 1935:324.988 - 0.037ms returns 0x00
T41C4 1935:325.014 JLINK_WriteReg(R9, 0x20000704)
T41C4 1935:325.038 - 0.036ms returns 0x00
T41C4 1935:325.064 JLINK_WriteReg(R10, 0x00000000)
T41C4 1935:325.089 - 0.037ms returns 0x00
T41C4 1935:325.114 JLINK_WriteReg(R11, 0x00000000)
T41C4 1935:325.139 - 0.037ms returns 0x00
T41C4 1935:325.164 JLINK_WriteReg(R12, 0x00000000)
T41C4 1935:325.189 - 0.037ms returns 0x00
T41C4 1935:325.214 JLINK_WriteReg(R13 (SP), 0x20002000)
T41C4 1935:325.240 - 0.037ms returns 0x00
T41C4 1935:325.265 JLINK_WriteReg(R14, 0x20000001)
T41C4 1935:325.290 - 0.037ms returns 0x00
T41C4 1935:325.318 JLINK_WriteReg(R15 (PC), 0x20000020)
T41C4 1935:325.345 - 0.039ms returns 0x00
T41C4 1935:325.374 JLINK_WriteReg(XPSR, 0x01000000)
T41C4 1935:325.399 - 0.037ms returns 0x00
T41C4 1935:325.424 JLINK_WriteReg(MSP, 0x20002000)
T41C4 1935:325.449 - 0.036ms returns 0x00
T41C4 1935:325.474 JLINK_WriteReg(PSP, 0x20002000)
T41C4 1935:325.499 - 0.036ms returns 0x00
T41C4 1935:325.524 JLINK_WriteReg(CFBP, 0x00000000)
T41C4 1935:325.549 - 0.037ms returns 0x00
T41C4 1935:325.576   JLINK_SetBPEx(Addr = 0x20000000, Type = 0xFFFFFFF2)
T41C4 1935:325.619   CPU_ReadMem(2 bytes @ 0x20000000)
T41C4 1935:326.495 - 0.950ms returns 0x00000001
T41C4 1935:326.549 JLINK_Go()
T41C4 1935:326.579   CPU_WriteMem(2 bytes @ 0x20000000)
T41C4 1935:327.439   CPU_ReadMem(4 bytes @ 0xE0001000)
T41C4 1935:328.263   CPU_WriteMem(4 bytes @ 0xE0002008)
T41C4 1935:328.308   CPU_WriteMem(4 bytes @ 0xE000200C)
T41C4 1935:328.345   CPU_WriteMem(4 bytes @ 0xE0002010)
T41C4 1935:328.388   CPU_WriteMem(4 bytes @ 0xE0002014)
T41C4 1935:328.425   CPU_WriteMem(4 bytes @ 0xE0002018)
T41C4 1935:328.462   CPU_WriteMem(4 bytes @ 0xE000201C)
T41C4 1935:331.275   CPU_WriteMem(4 bytes @ 0xE0001004)
T41C4 1935:338.258 - 11.728ms
T41C4 1935:338.293 JLINK_IsHalted()
T41C4 1935:345.141   CPU_ReadMem(2 bytes @ 0x20000000)
T41C4 1935:346.409 - 8.215ms returns TRUE
T41C4 1935:346.601 JLINK_ReadReg(R15 (PC))
T41C4 1935:346.733 - 0.193ms returns 0x20000000
T41C4 1935:346.862 JLINK_ClrBPEx(BPHandle = 0x00000001)
T41C4 1935:346.986 - 0.183ms returns 0x00
T41C4 1935:347.169 JLINK_ReadReg(R0)
T41C4 1935:347.293 - 0.184ms returns 0x00000000
T41C4 1935:348.323 JLINK_WriteReg(R0, 0x00000000)
T41C4 1935:348.472 - 0.210ms returns 0x00
T41C4 1935:348.598 JLINK_WriteReg(R1, 0x00001000)
T41C4 1935:348.719 - 0.179ms returns 0x00
T41C4 1935:348.841 JLINK_WriteReg(R2, 0x000000FF)
T41C4 1935:348.962 - 0.180ms returns 0x00
T41C4 1935:349.090 JLINK_WriteReg(R3, 0x00000000)
T41C4 1935:349.212 - 0.182ms returns 0x00
T41C4 1935:349.335 JLINK_WriteReg(R4, 0x00000000)
T41C4 1935:349.455 - 0.180ms returns 0x00
T41C4 1935:349.579 JLINK_WriteReg(R5, 0x00000000)
T41C4 1935:349.699 - 0.179ms returns 0x00
T41C4 1935:349.822 JLINK_WriteReg(R6, 0x00000000)
T41C4 1935:349.943 - 0.181ms returns 0x00
T41C4 1935:350.070 JLINK_WriteReg(R7, 0x00000000)
T41C4 1935:350.191 - 0.180ms returns 0x00
T41C4 1935:350.322 JLINK_WriteReg(R8, 0x00000000)
T41C4 1935:350.444 - 0.182ms returns 0x00
T41C4 1935:350.571 JLINK_WriteReg(R9, 0x20000704)
T41C4 1935:350.693 - 0.182ms returns 0x00
T41C4 1935:350.819 JLINK_WriteReg(R10, 0x00000000)
T41C4 1935:350.940 - 0.181ms returns 0x00
T41C4 1935:351.072 JLINK_WriteReg(R11, 0x00000000)
T41C4 1935:351.193 - 0.181ms returns 0x00
T41C4 1935:351.320 JLINK_WriteReg(R12, 0x00000000)
T41C4 1935:351.441 - 0.180ms returns 0x00
T41C4 1935:351.568 JLINK_WriteReg(R13 (SP), 0x20002000)
T41C4 1935:351.691 - 0.183ms returns 0x00
T41C4 1935:351.817 JLINK_WriteReg(R14, 0x20000001)
T41C4 1935:351.938 - 0.181ms returns 0x00
T41C4 1935:352.067 JLINK_WriteReg(R15 (PC), 0x20000314)
T41C4 1935:352.189 - 0.181ms returns 0x00
T41C4 1935:352.314 JLINK_WriteReg(XPSR, 0x01000000)
T41C4 1935:352.437 - 0.182ms returns 0x00
T41C4 1935:352.562 JLINK_WriteReg(MSP, 0x20002000)
T41C4 1935:352.683 - 0.181ms returns 0x00
T41C4 1935:352.809 JLINK_WriteReg(PSP, 0x20002000)
T41C4 1935:352.931 - 0.182ms returns 0x00
T41C4 1935:353.060 JLINK_WriteReg(CFBP, 0x00000000)
T41C4 1935:353.213 - 0.229ms returns 0x00
T41C4 1935:353.363   JLINK_SetBPEx(Addr = 0x20000000, Type = 0xFFFFFFF2)
T41C4 1935:353.549 - 0.249ms returns 0x00000002
T41C4 1935:353.678 JLINK_Go()
T41C4 1935:353.832   CPU_ReadMem(4 bytes @ 0xE0001000)
T41C4 1935:361.671 - 8.107ms
T41C4 1935:361.874 JLINK_IsHalted()
T41C4 1935:369.164   CPU_ReadMem(2 bytes @ 0x20000000)
T41C4 1935:369.788 - 7.929ms returns TRUE
T41C4 1935:369.819 JLINK_ReadReg(R15 (PC))
T41C4 1935:369.847 - 0.039ms returns 0x20000000
T41C4 1935:369.873 JLINK_ClrBPEx(BPHandle = 0x00000002)
T41C4 1935:369.898 - 0.077ms returns 0x00
T41C4 1935:369.968 JLINK_ReadReg(R0)
T41C4 1935:369.994 - 0.038ms returns 0x00000000
T41C4 1935:370.353 JLINK_WriteReg(R0, 0x00001000)
T41C4 1935:370.384 - 0.043ms returns 0x00
T41C4 1935:370.409 JLINK_WriteReg(R1, 0x00001000)
T41C4 1935:370.434 - 0.037ms returns 0x00
T41C4 1935:370.460 JLINK_WriteReg(R2, 0x000000FF)
T41C4 1935:370.484 - 0.037ms returns 0x00
T41C4 1935:370.510 JLINK_WriteReg(R3, 0x00000000)
T41C4 1935:370.534 - 0.036ms returns 0x00
T41C4 1935:370.560 JLINK_WriteReg(R4, 0x00000000)
T41C4 1935:370.584 - 0.036ms returns 0x00
T41C4 1935:370.609 JLINK_WriteReg(R5, 0x00000000)
T41C4 1935:370.635 - 0.038ms returns 0x00
T41C4 1935:370.660 JLINK_WriteReg(R6, 0x00000000)
T41C4 1935:370.685 - 0.037ms returns 0x00
T41C4 1935:370.711 JLINK_WriteReg(R7, 0x00000000)
T41C4 1935:370.735 - 0.036ms returns 0x00
T41C4 1935:370.761 JLINK_WriteReg(R8, 0x00000000)
T41C4 1935:370.785 - 0.036ms returns 0x00
T41C4 1935:370.810 JLINK_WriteReg(R9, 0x20000704)
T41C4 1935:370.835 - 0.037ms returns 0x00
T41C4 1935:370.860 JLINK_WriteReg(R10, 0x00000000)
T41C4 1935:370.885 - 0.036ms returns 0x00
T41C4 1935:370.910 JLINK_WriteReg(R11, 0x00000000)
T41C4 1935:370.935 - 0.036ms returns 0x00
T41C4 1935:370.960 JLINK_WriteReg(R12, 0x00000000)
T41C4 1935:370.985 - 0.037ms returns 0x00
T41C4 1935:371.010 JLINK_WriteReg(R13 (SP), 0x20002000)
T41C4 1935:371.036 - 0.037ms returns 0x00
T41C4 1935:371.061 JLINK_WriteReg(R14, 0x20000001)
T41C4 1935:371.086 - 0.037ms returns 0x00
T41C4 1935:371.111 JLINK_WriteReg(R15 (PC), 0x20000314)
T41C4 1935:371.135 - 0.037ms returns 0x00
T41C4 1935:371.161 JLINK_WriteReg(XPSR, 0x01000000)
T41C4 1935:371.186 - 0.036ms returns 0x00
T41C4 1935:371.211 JLINK_WriteReg(MSP, 0x20002000)
T41C4 1935:371.235 - 0.036ms returns 0x00
T41C4 1935:371.260 JLINK_WriteReg(PSP, 0x20002000)
T41C4 1935:371.285 - 0.036ms returns 0x00
T41C4 1935:371.310 JLINK_WriteReg(CFBP, 0x00000000)
T41C4 1935:371.335 - 0.036ms returns 0x00
T41C4 1935:371.361   JLINK_SetBPEx(Addr = 0x20000000, Type = 0xFFFFFFF2)
T41C4 1935:371.398 - 0.050ms returns 0x00000003
T41C4 1935:371.424 JLINK_Go()
T41C4 1935:371.455   CPU_ReadMem(4 bytes @ 0xE0001000)
T41C4 1935:378.067 - 6.659ms
T41C4 1935:378.098 JLINK_IsHalted()
T41C4 1935:378.786 - 0.702ms returns FALSE
T41C4 1935:409.622 JLINK_IsHalted()
T41C4 1935:416.545   CPU_ReadMem(2 bytes @ 0x20000000)
T41C4 1935:417.474 - 7.884ms returns TRUE
T41C4 1935:417.525 JLINK_ReadReg(R15 (PC))
T41C4 1935:417.553 - 0.040ms returns 0x20000000
T41C4 1935:417.579 JLINK_ClrBPEx(BPHandle = 0x00000003)
T41C4 1935:417.604 - 0.039ms returns 0x00
T41C4 1935:417.632 JLINK_ReadReg(R0)
T41C4 1935:417.657 - 0.037ms returns 0x00000000
T41C4 1935:418.053 JLINK_WriteReg(R0, 0x00002000)
T41C4 1935:418.086 - 0.046ms returns 0x00
T41C4 1935:418.112 JLINK_WriteReg(R1, 0x00001000)
T41C4 1935:418.137 - 0.037ms returns 0x00
T41C4 1935:418.162 JLINK_WriteReg(R2, 0x000000FF)
T41C4 1935:418.187 - 0.036ms returns 0x00
T41C4 1935:418.212 JLINK_WriteReg(R3, 0x00000000)
T41C4 1935:418.237 - 0.037ms returns 0x00
T41C4 1935:418.262 JLINK_WriteReg(R4, 0x00000000)
T41C4 1935:418.287 - 0.036ms returns 0x00
T41C4 1935:418.312 JLINK_WriteReg(R5, 0x00000000)
T41C4 1935:418.337 - 0.036ms returns 0x00
T41C4 1935:418.362 JLINK_WriteReg(R6, 0x00000000)
T41C4 1935:418.387 - 0.036ms returns 0x00
T41C4 1935:418.412 JLINK_WriteReg(R7, 0x00000000)
T41C4 1935:418.437 - 0.036ms returns 0x00
T41C4 1935:418.462 JLINK_WriteReg(R8, 0x00000000)
T41C4 1935:418.487 - 0.037ms returns 0x00
T41C4 1935:418.512 JLINK_WriteReg(R9, 0x20000704)
T41C4 1935:418.537 - 0.036ms returns 0x00
T41C4 1935:418.562 JLINK_WriteReg(R10, 0x00000000)
T41C4 1935:418.587 - 0.037ms returns 0x00
T41C4 1935:418.612 JLINK_WriteReg(R11, 0x00000000)
T41C4 1935:418.637 - 0.038ms returns 0x00
T41C4 1935:418.663 JLINK_WriteReg(R12, 0x00000000)
T41C4 1935:418.688 - 0.037ms returns 0x00
T41C4 1935:418.714 JLINK_WriteReg(R13 (SP), 0x20002000)
T41C4 1935:418.738 - 0.037ms returns 0x00
T41C4 1935:418.764 JLINK_WriteReg(R14, 0x20000001)
T41C4 1935:418.793 - 0.041ms returns 0x00
T41C4 1935:418.819 JLINK_WriteReg(R15 (PC), 0x20000314)
T41C4 1935:418.844 - 0.037ms returns 0x00
T41C4 1935:418.869 JLINK_WriteReg(XPSR, 0x01000000)
T41C4 1935:418.893 - 0.037ms returns 0x00
T41C4 1935:418.919 JLINK_WriteReg(MSP, 0x20002000)
T41C4 1935:418.943 - 0.036ms returns 0x00
T41C4 1935:418.968 JLINK_WriteReg(PSP, 0x20002000)
T41C4 1935:418.993 - 0.036ms returns 0x00
T41C4 1935:419.018 JLINK_WriteReg(CFBP, 0x00000000)
T41C4 1935:419.043 - 0.036ms returns 0x00
T41C4 1935:419.069   JLINK_SetBPEx(Addr = 0x20000000, Type = 0xFFFFFFF2)
T41C4 1935:419.106 - 0.050ms returns 0x00000004
T41C4 1935:419.132 JLINK_Go()
T41C4 1935:419.164   CPU_ReadMem(4 bytes @ 0xE0001000)
T41C4 1935:426.254 - 7.144ms
T41C4 1935:426.294 JLINK_IsHalted()
T41C4 1935:427.036 - 0.760ms returns FALSE
T41C4 1935:429.857 JLINK_IsHalted()
T41C4 1935:436.319   CPU_ReadMem(2 bytes @ 0x20000000)
T41C4 1935:437.052 - 7.214ms returns TRUE
T41C4 1935:437.086 JLINK_ReadReg(R15 (PC))
T41C4 1935:437.113 - 0.039ms returns 0x20000000
T41C4 1935:437.139 JLINK_ClrBPEx(BPHandle = 0x00000004)
T41C4 1935:437.165 - 0.037ms returns 0x00
T41C4 1935:437.190 JLINK_ReadReg(R0)
T41C4 1935:437.215 - 0.037ms returns 0x00000000
T41C4 1935:437.565 JLINK_WriteReg(R0, 0x00003000)
T41C4 1935:437.595 - 0.042ms returns 0x00
T41C4 1935:437.621 JLINK_WriteReg(R1, 0x00001000)
T41C4 1935:437.646 - 0.036ms returns 0x00
T41C4 1935:437.671 JLINK_WriteReg(R2, 0x000000FF)
T41C4 1935:437.696 - 0.037ms returns 0x00
T41C4 1935:437.721 JLINK_WriteReg(R3, 0x00000000)
T41C4 1935:437.746 - 0.050ms returns 0x00
T41C4 1935:437.785 JLINK_WriteReg(R4, 0x00000000)
T41C4 1935:437.810 - 0.037ms returns 0x00
T41C4 1935:437.835 JLINK_WriteReg(R5, 0x00000000)
T41C4 1935:437.860 - 0.037ms returns 0x00
T41C4 1935:437.885 JLINK_WriteReg(R6, 0x00000000)
T41C4 1935:437.910 - 0.036ms returns 0x00
T41C4 1935:437.935 JLINK_WriteReg(R7, 0x00000000)
T41C4 1935:437.960 - 0.037ms returns 0x00
T41C4 1935:437.985 JLINK_WriteReg(R8, 0x00000000)
T41C4 1935:438.010 - 0.037ms returns 0x00
T41C4 1935:438.035 JLINK_WriteReg(R9, 0x20000704)
T41C4 1935:438.060 - 0.036ms returns 0x00
T41C4 1935:438.085 JLINK_WriteReg(R10, 0x00000000)
T41C4 1935:438.110 - 0.036ms returns 0x00
T41C4 1935:438.135 JLINK_WriteReg(R11, 0x00000000)
T41C4 1935:438.160 - 0.037ms returns 0x00
T41C4 1935:438.185 JLINK_WriteReg(R12, 0x00000000)
T41C4 1935:438.210 - 0.037ms returns 0x00
T41C4 1935:438.235 JLINK_WriteReg(R13 (SP), 0x20002000)
T41C4 1935:438.261 - 0.037ms returns 0x00
T41C4 1935:438.286 JLINK_WriteReg(R14, 0x20000001)
T41C4 1935:438.311 - 0.036ms returns 0x00
T41C4 1935:438.336 JLINK_WriteReg(R15 (PC), 0x20000314)
T41C4 1935:438.361 - 0.037ms returns 0x00
T41C4 1935:438.386 JLINK_WriteReg(XPSR, 0x01000000)
T41C4 1935:438.411 - 0.037ms returns 0x00
T41C4 1935:438.436 JLINK_WriteReg(MSP, 0x20002000)
T41C4 1935:438.461 - 0.036ms returns 0x00
T41C4 1935:438.486 JLINK_WriteReg(PSP, 0x20002000)
T41C4 1935:438.511 - 0.036ms returns 0x00
T41C4 1935:438.536 JLINK_WriteReg(CFBP, 0x00000000)
T41C4 1935:438.561 - 0.037ms returns 0x00
T41C4 1935:438.587   JLINK_SetBPEx(Addr = 0x20000000, Type = 0xFFFFFFF2)
T41C4 1935:438.624 - 0.050ms returns 0x00000005
T41C4 1935:438.650 JLINK_Go()
T41C4 1935:438.681   CPU_ReadMem(4 bytes @ 0xE0001000)
T41C4 1935:445.508 - 6.875ms
T41C4 1935:445.540 JLINK_IsHalted()
T41C4 1935:452.001   CPU_ReadMem(2 bytes @ 0x20000000)
T41C4 1935:452.715 - 7.192ms returns TRUE
T41C4 1935:452.750 JLINK_ReadReg(R15 (PC))
T41C4 1935:452.777 - 0.039ms returns 0x20000000
T41C4 1935:452.803 JLINK_ClrBPEx(BPHandle = 0x00000005)
T41C4 1935:452.829 - 0.037ms returns 0x00
T41C4 1935:452.855 JLINK_ReadReg(R0)
T41C4 1935:452.880 - 0.037ms returns 0x00000000
T41C4 1935:453.102 JLINK_WriteReg(R0, 0x00000001)
T41C4 1935:453.131 - 0.042ms returns 0x00
T41C4 1935:453.157 JLINK_WriteReg(R1, 0x00001000)
T41C4 1935:453.182 - 0.037ms returns 0x00
T41C4 1935:453.208 JLINK_WriteReg(R2, 0x000000FF)
T41C4 1935:453.235 - 0.041ms returns 0x00
T41C4 1935:453.263 JLINK_WriteReg(R3, 0x00000000)
T41C4 1935:453.288 - 0.037ms returns 0x00
T41C4 1935:453.313 JLINK_WriteReg(R4, 0x00000000)
T41C4 1935:453.338 - 0.036ms returns 0x00
T41C4 1935:453.363 JLINK_WriteReg(R5, 0x00000000)
T41C4 1935:453.387 - 0.036ms returns 0x00
T41C4 1935:453.413 JLINK_WriteReg(R6, 0x00000000)
T41C4 1935:453.437 - 0.037ms returns 0x00
T41C4 1935:453.463 JLINK_WriteReg(R7, 0x00000000)
T41C4 1935:453.489 - 0.038ms returns 0x00
T41C4 1935:453.514 JLINK_WriteReg(R8, 0x00000000)
T41C4 1935:453.539 - 0.037ms returns 0x00
T41C4 1935:453.564 JLINK_WriteReg(R9, 0x20000704)
T41C4 1935:453.589 - 0.037ms returns 0x00
T41C4 1935:453.614 JLINK_WriteReg(R10, 0x00000000)
T41C4 1935:453.639 - 0.036ms returns 0x00
T41C4 1935:453.664 JLINK_WriteReg(R11, 0x00000000)
T41C4 1935:453.689 - 0.037ms returns 0x00
T41C4 1935:453.714 JLINK_WriteReg(R12, 0x00000000)
T41C4 1935:453.739 - 0.037ms returns 0x00
T41C4 1935:453.765 JLINK_WriteReg(R13 (SP), 0x20002000)
T41C4 1935:453.790 - 0.037ms returns 0x00
T41C4 1935:453.815 JLINK_WriteReg(R14, 0x20000001)
T41C4 1935:453.840 - 0.036ms returns 0x00
T41C4 1935:453.865 JLINK_WriteReg(R15 (PC), 0x20000060)
T41C4 1935:453.890 - 0.037ms returns 0x00
T41C4 1935:453.915 JLINK_WriteReg(XPSR, 0x01000000)
T41C4 1935:453.940 - 0.037ms returns 0x00
T41C4 1935:453.965 JLINK_WriteReg(MSP, 0x20002000)
T41C4 1935:453.990 - 0.037ms returns 0x00
T41C4 1935:454.015 JLINK_WriteReg(PSP, 0x20002000)
T41C4 1935:454.040 - 0.036ms returns 0x00
T41C4 1935:454.065 JLINK_WriteReg(CFBP, 0x00000000)
T41C4 1935:454.090 - 0.037ms returns 0x00
T41C4 1935:454.116   JLINK_SetBPEx(Addr = 0x20000000, Type = 0xFFFFFFF2)
T41C4 1935:454.154 - 0.050ms returns 0x00000006
T41C4 1935:454.179 JLINK_Go()
T41C4 1935:454.209   CPU_ReadMem(4 bytes @ 0xE0001000)
T41C4 1935:460.818 - 6.657ms
T41C4 1935:460.852 JLINK_IsHalted()
T41C4 1935:467.397   CPU_ReadMem(2 bytes @ 0x20000000)
T41C4 1935:468.405 - 7.585ms returns TRUE
T41C4 1935:468.455 JLINK_ReadReg(R15 (PC))
T41C4 1935:468.483 - 0.040ms returns 0x20000000
T41C4 1935:468.509 JLINK_ClrBPEx(BPHandle = 0x00000006)
T41C4 1935:468.535 - 0.037ms returns 0x00
T41C4 1935:468.561 JLINK_ReadReg(R0)
T41C4 1935:468.586 - 0.037ms returns 0x00000000
T41C4 1935:529.188 JLINK_WriteMem(0x20000000, 0x0708 Bytes, ...)
T41C4 1935:529.222   Data:  00 BE 0A E0 0D 78 2D 06 68 40 08 24 40 00 00 D3 ...
T41C4 1935:529.269   CPU_WriteMem(1800 bytes @ 0x20000000)
T41C4 1935:553.905 - 24.750ms returns 0x708
T41C4 1935:553.991 JLINK_WriteReg(R0, 0x00000000)
T41C4 1935:554.021 - 0.042ms returns 0x00
T41C4 1935:554.047 JLINK_WriteReg(R1, 0x03D09000)
T41C4 1935:554.072 - 0.037ms returns 0x00
T41C4 1935:554.098 JLINK_WriteReg(R2, 0x00000002)
T41C4 1935:554.123 - 0.037ms returns 0x00
T41C4 1935:554.149 JLINK_WriteReg(R3, 0x00000000)
T41C4 1935:554.174 - 0.037ms returns 0x00
T41C4 1935:554.199 JLINK_WriteReg(R4, 0x00000000)
T41C4 1935:554.224 - 0.038ms returns 0x00
T41C4 1935:554.251 JLINK_WriteReg(R5, 0x00000000)
T41C4 1935:554.276 - 0.037ms returns 0x00
T41C4 1935:554.302 JLINK_WriteReg(R6, 0x00000000)
T41C4 1935:554.327 - 0.037ms returns 0x00
T41C4 1935:554.353 JLINK_WriteReg(R7, 0x00000000)
T41C4 1935:554.378 - 0.037ms returns 0x00
T41C4 1935:554.404 JLINK_WriteReg(R8, 0x00000000)
T41C4 1935:554.429 - 0.037ms returns 0x00
T41C4 1935:554.454 JLINK_WriteReg(R9, 0x20000704)
T41C4 1935:554.479 - 0.036ms returns 0x00
T41C4 1935:554.504 JLINK_WriteReg(R10, 0x00000000)
T41C4 1935:554.529 - 0.037ms returns 0x00
T41C4 1935:554.555 JLINK_WriteReg(R11, 0x00000000)
T41C4 1935:554.580 - 0.037ms returns 0x00
T41C4 1935:554.605 JLINK_WriteReg(R12, 0x00000000)
T41C4 1935:554.630 - 0.036ms returns 0x00
T41C4 1935:554.655 JLINK_WriteReg(R13 (SP), 0x20002000)
T41C4 1935:554.681 - 0.038ms returns 0x00
T41C4 1935:554.707 JLINK_WriteReg(R14, 0x20000001)
T41C4 1935:554.731 - 0.037ms returns 0x00
T41C4 1935:554.758 JLINK_WriteReg(R15 (PC), 0x20000020)
T41C4 1935:554.783 - 0.037ms returns 0x00
T41C4 1935:554.812 JLINK_WriteReg(XPSR, 0x01000000)
T41C4 1935:554.839 - 0.039ms returns 0x00
T41C4 1935:554.865 JLINK_WriteReg(MSP, 0x20002000)
T41C4 1935:554.890 - 0.037ms returns 0x00
T41C4 1935:554.916 JLINK_WriteReg(PSP, 0x20002000)
T41C4 1935:554.941 - 0.037ms returns 0x00
T41C4 1935:554.967 JLINK_WriteReg(CFBP, 0x00000000)
T41C4 1935:554.992 - 0.037ms returns 0x00
T41C4 1935:555.018   JLINK_SetBPEx(Addr = 0x20000000, Type = 0xFFFFFFF2)
T41C4 1935:555.060   CPU_ReadMem(2 bytes @ 0x20000000)
T41C4 1935:555.807 - 0.806ms returns 0x00000007
T41C4 1935:555.841 JLINK_Go()
T41C4 1935:555.870   CPU_WriteMem(2 bytes @ 0x20000000)
T41C4 1935:556.634   CPU_ReadMem(4 bytes @ 0xE0001000)
T41C4 1935:563.572 - 7.749ms
T41C4 1935:563.608 JLINK_IsHalted()
T41C4 1935:570.558   CPU_ReadMem(2 bytes @ 0x20000000)
T41C4 1935:571.407 - 7.833ms returns TRUE
T41C4 1935:571.465 JLINK_ReadReg(R15 (PC))
T41C4 1935:571.504 - 0.056ms returns 0x20000000
T41C4 1935:571.539 JLINK_ClrBPEx(BPHandle = 0x00000007)
T41C4 1935:571.566 - 0.039ms returns 0x00
T41C4 1935:571.592 JLINK_ReadReg(R0)
T41C4 1935:571.617 - 0.037ms returns 0x00000000
T41C4 1935:574.730 JLINK_WriteMem(0x20000718, 0x00E8 Bytes, ...)
T41C4 1935:574.764   Data:  E8 27 00 20 F9 02 00 00 01 03 00 00 03 03 00 00 ...
T41C4 1935:574.810   CPU_WriteMem(232 bytes @ 0x20000718)
T41C4 1935:578.539 - 3.827ms returns 0xE8
T41C4 1935:578.573 JLINK_WriteMem(0x20000800, 0x0400 Bytes, ...)
T41C4 1935:578.599   Data:  00 00 00 00 00 00 00 00 00 00 00 00 00 00 00 00 ...
T41C4 1935:578.645   CPU_WriteMem(1024 bytes @ 0x20000800)
T41C4 1935:592.864 - 14.312ms returns 0x400
T41C4 1935:592.902 JLINK_WriteMem(0x20000C00, 0x0400 Bytes, ...)
T41C4 1935:592.928   Data:  40 1C 00 28 53 D0 04 A9 48 46 01 F0 C0 FE 00 28 ...
T41C4 1935:592.972   CPU_WriteMem(1024 bytes @ 0x20000C00)
T41C4 1935:607.337 - 14.459ms returns 0x400
T41C4 1935:607.382 JLINK_WriteMem(0x20001000, 0x0400 Bytes, ...)
T41C4 1935:607.408   Data:  00 BF 00 BF 00 BF 00 BF BF F3 4F 8F 00 BF 00 BF ...
T41C4 1935:607.455   CPU_WriteMem(1024 bytes @ 0x20001000)
T41C4 1935:621.735 - 14.373ms returns 0x400
T41C4 1935:621.774 JLINK_WriteMem(0x20001400, 0x0318 Bytes, ...)
T41C4 1935:621.799   Data:  01 00 10 BD F4 32 00 00 7C B5 00 24 0D E0 08 48 ...
T41C4 1935:621.842   CPU_WriteMem(792 bytes @ 0x20001400)
T41C4 1935:633.014 - 11.265ms returns 0x318
T41C4 1935:633.062 JLINK_WriteReg(R0, 0x00000000)
T41C4 1935:633.091 - 0.041ms returns 0x00
T41C4 1935:633.118 JLINK_WriteReg(R1, 0x00001000)
T41C4 1935:633.143 - 0.037ms returns 0x00
T41C4 1935:633.169 JLINK_WriteReg(R2, 0x20000718)
T41C4 1935:633.194 - 0.037ms returns 0x00
T41C4 1935:633.220 JLINK_WriteReg(R3, 0x00000000)
T41C4 1935:633.245 - 0.037ms returns 0x00
T41C4 1935:633.271 JLINK_WriteReg(R4, 0x00000000)
T41C4 1935:633.295 - 0.037ms returns 0x00
T41C4 1935:633.322 JLINK_WriteReg(R5, 0x00000000)
T41C4 1935:633.346 - 0.037ms returns 0x00
T41C4 1935:633.372 JLINK_WriteReg(R6, 0x00000000)
T41C4 1935:633.397 - 0.036ms returns 0x00
T41C4 1935:633.423 JLINK_WriteReg(R7, 0x00000000)
T41C4 1935:633.448 - 0.037ms returns 0x00
T41C4 1935:633.473 JLINK_WriteReg(R8, 0x00000000)
T41C4 1935:633.498 - 0.037ms returns 0x00
T41C4 1935:633.524 JLINK_WriteReg(R9, 0x20000704)
T41C4 1935:633.549 - 0.037ms returns 0x00
T41C4 1935:633.574 JLINK_WriteReg(R10, 0x00000000)
T41C4 1935:633.601 - 0.038ms returns 0x00
T41C4 1935:633.627 JLINK_WriteReg(R11, 0x00000000)
T41C4 1935:633.652 - 0.037ms returns 0x00
T41C4 1935:633.677 JLINK_WriteReg(R12, 0x00000000)
T41C4 1935:633.702 - 0.037ms returns 0x00
T41C4 1935:633.729 JLINK_WriteReg(R13 (SP), 0x20002000)
T41C4 1935:633.754 - 0.037ms returns 0x00
T41C4 1935:633.780 JLINK_WriteReg(R14, 0x20000001)
T41C4 1935:633.805 - 0.036ms returns 0x00
T41C4 1935:633.831 JLINK_WriteReg(R15 (PC), 0x200001DC)
T41C4 1935:633.856 - 0.037ms returns 0x00
T41C4 1935:633.882 JLINK_WriteReg(XPSR, 0x01000000)
T41C4 1935:633.907 - 0.037ms returns 0x00
T41C4 1935:633.933 JLINK_WriteReg(MSP, 0x20002000)
T41C4 1935:633.958 - 0.077ms returns 0x00
T41C4 1935:634.029 JLINK_WriteReg(PSP, 0x20002000)
T41C4 1935:634.054 - 0.037ms returns 0x00
T41C4 1935:634.080 JLINK_WriteReg(CFBP, 0x00000000)
T41C4 1935:634.105 - 0.037ms returns 0x00
T41C4 1935:634.132   JLINK_SetBPEx(Addr = 0x20000000, Type = 0xFFFFFFF2)
T41C4 1935:634.170 - 0.050ms returns 0x00000008
T41C4 1935:634.196 JLINK_Go()
T41C4 1935:634.230   CPU_ReadMem(4 bytes @ 0xE0001000)
T41C4 1935:641.233 - 7.054ms
T41C4 1935:641.267 JLINK_IsHalted()
T41C4 1935:641.944 - 0.694ms returns FALSE
T41C4 1935:652.824 JLINK_IsHalted()
T41C4 1935:653.911 - 1.122ms returns FALSE
T41C4 1935:655.914 JLINK_IsHalted()
T41C4 1935:656.671 - 0.774ms returns FALSE
T41C4 1935:658.185 JLINK_IsHalted()
T41C4 1935:659.136 - 0.982ms returns FALSE
T41C4 1935:660.824 JLINK_IsHalted()
T41C4 1935:661.676 - 0.871ms returns FALSE
T41C4 1935:664.852 JLINK_IsHalted()
T41C4 1935:665.641 - 0.806ms returns FALSE
T41C4 1935:667.954 JLINK_IsHalted()
T41C4 1935:668.695 - 0.758ms returns FALSE
T41C4 1935:670.207 JLINK_IsHalted()
T41C4 1935:671.041 - 0.860ms returns FALSE
T41C4 1935:673.083 JLINK_IsHalted()
T41C4 1935:674.133 - 1.082ms returns FALSE
T41C4 1935:678.079 JLINK_IsHalted()
T41C4 1935:679.136 - 1.088ms returns FALSE
T41C4 1935:680.894 JLINK_IsHalted()
T41C4 1935:681.738 - 0.864ms returns FALSE
T41C4 1935:682.835 JLINK_IsHalted()
T41C4 1935:689.403   CPU_ReadMem(2 bytes @ 0x20000000)
T41C4 1935:690.121 - 7.301ms returns TRUE
T41C4 1935:690.151 JLINK_ReadReg(R15 (PC))
T41C4 1935:690.178 - 0.038ms returns 0x20000000
T41C4 1935:690.204 JLINK_ClrBPEx(BPHandle = 0x00000008)
T41C4 1935:690.229 - 0.037ms returns 0x00
T41C4 1935:690.255 JLINK_ReadReg(R0)
T41C4 1935:690.280 - 0.037ms returns 0x00000000
T41C4 1935:690.659 JLINK_WriteMem(0x20000718, 0x00E8 Bytes, ...)
T41C4 1935:690.689   Data:  01 22 11 46 30 46 FF F7 AF FF 04 46 76 1C 04 2E ...
T41C4 1935:690.731   CPU_WriteMem(232 bytes @ 0x20000718)
T41C4 1935:694.381 - 3.737ms returns 0xE8
T41C4 1935:694.413 JLINK_WriteMem(0x20000800, 0x0400 Bytes, ...)
T41C4 1935:694.440   Data:  00 20 FF F7 3D FE 02 2C 02 D1 4F F4 E1 60 01 E0 ...
T41C4 1935:694.479   CPU_WriteMem(1024 bytes @ 0x20000800)
T41C4 1935:708.844 - 14.461ms returns 0x400
T41C4 1935:708.895 JLINK_WriteMem(0x20000C00, 0x0400 Bytes, ...)
T41C4 1935:708.921   Data:  40 46 BD E8 F8 8F 00 00 C0 03 00 20 DC 07 00 20 ...
T41C4 1935:708.966   CPU_WriteMem(1024 bytes @ 0x20000C00)
T41C4 1935:723.377 - 14.504ms returns 0x400
T41C4 1935:723.419 JLINK_WriteMem(0x20001000, 0x0400 Bytes, ...)
T41C4 1935:723.446   Data:  00 78 00 F0 F0 00 30 28 01 D1 01 20 70 47 0A 48 ...
T41C4 1935:723.490   CPU_WriteMem(1024 bytes @ 0x20001000)
T41C4 1935:737.904 - 14.517ms returns 0x400
T41C4 1935:737.957 JLINK_WriteMem(0x20001400, 0x0318 Bytes, ...)
T41C4 1935:737.983   Data:  00 E0 3E E0 00 BF 20 7C 00 B1 3A E0 A8 68 60 60 ...
T41C4 1935:738.029   CPU_WriteMem(792 bytes @ 0x20001400)
T41C4 1935:749.440 - 11.515ms returns 0x318
T41C4 1935:749.497 JLINK_WriteReg(R0, 0x00001000)
T41C4 1935:749.526 - 0.042ms returns 0x00
T41C4 1935:749.553 JLINK_WriteReg(R1, 0x00001000)
T41C4 1935:749.578 - 0.037ms returns 0x00
T41C4 1935:749.604 JLINK_WriteReg(R2, 0x20000718)
T41C4 1935:749.629 - 0.037ms returns 0x00
T41C4 1935:749.655 JLINK_WriteReg(R3, 0x00000000)
T41C4 1935:749.680 - 0.037ms returns 0x00
T41C4 1935:749.706 JLINK_WriteReg(R4, 0x00000000)
T41C4 1935:749.731 - 0.037ms returns 0x00
T41C4 1935:749.756 JLINK_WriteReg(R5, 0x00000000)
T41C4 1935:749.781 - 0.037ms returns 0x00
T41C4 1935:749.807 JLINK_WriteReg(R6, 0x00000000)
T41C4 1935:749.833 - 0.038ms returns 0x00
T41C4 1935:749.860 JLINK_WriteReg(R7, 0x00000000)
T41C4 1935:749.886 - 0.038ms returns 0x00
T41C4 1935:749.912 JLINK_WriteReg(R8, 0x00000000)
T41C4 1935:749.937 - 0.037ms returns 0x00
T41C4 1935:749.962 JLINK_WriteReg(R9, 0x20000704)
T41C4 1935:749.987 - 0.037ms returns 0x00
T41C4 1935:750.013 JLINK_WriteReg(R10, 0x00000000)
T41C4 1935:750.038 - 0.037ms returns 0x00
T41C4 1935:750.064 JLINK_WriteReg(R11, 0x00000000)
T41C4 1935:750.092 - 0.042ms returns 0x00
T41C4 1935:750.121 JLINK_WriteReg(R12, 0x00000000)
T41C4 1935:750.146 - 0.037ms returns 0x00
T41C4 1935:750.171 JLINK_WriteReg(R13 (SP), 0x20002000)
T41C4 1935:750.197 - 0.038ms returns 0x00
T41C4 1935:750.223 JLINK_WriteReg(R14, 0x20000001)
T41C4 1935:750.248 - 0.038ms returns 0x00
T41C4 1935:750.275 JLINK_WriteReg(R15 (PC), 0x200001DC)
T41C4 1935:750.303 - 0.042ms returns 0x00
T41C4 1935:750.333 JLINK_WriteReg(XPSR, 0x01000000)
T41C4 1935:750.361 - 0.042ms returns 0x00
T41C4 1935:750.392 JLINK_WriteReg(MSP, 0x20002000)
T41C4 1935:750.421 - 0.044ms returns 0x00
T41C4 1935:750.452 JLINK_WriteReg(PSP, 0x20002000)
T41C4 1935:750.483 - 0.044ms returns 0x00
T41C4 1935:750.512 JLINK_WriteReg(CFBP, 0x00000000)
T41C4 1935:750.538 - 0.037ms returns 0x00
T41C4 1935:750.565   JLINK_SetBPEx(Addr = 0x20000000, Type = 0xFFFFFFF2)
T41C4 1935:750.603 - 0.051ms returns 0x00000009
T41C4 1935:750.630 JLINK_Go()
T41C4 1935:750.663   CPU_ReadMem(4 bytes @ 0xE0001000)
T41C4 1935:757.505 - 6.895ms
T41C4 1935:757.543 JLINK_IsHalted()
T41C4 1935:758.258 - 0.732ms returns FALSE
T41C4 1935:764.817 JLINK_IsHalted()
T41C4 1935:765.572 - 0.773ms returns FALSE
T41C4 1935:766.777 JLINK_IsHalted()
T41C4 1935:767.524 - 0.764ms returns FALSE
T41C4 1935:768.742 JLINK_IsHalted()
T41C4 1935:769.450 - 0.726ms returns FALSE
T41C4 1935:776.880 JLINK_IsHalted()
T41C4 1935:777.539 - 0.674ms returns FALSE
T41C4 1935:778.871 JLINK_IsHalted()
T41C4 1935:779.560 - 0.703ms returns FALSE
T41C4 1935:780.813 JLINK_IsHalted()
T41C4 1935:781.453 - 0.654ms returns FALSE
T41C4 1935:782.806 JLINK_IsHalted()
T41C4 1935:783.485 - 0.695ms returns FALSE
T41C4 1935:784.806 JLINK_IsHalted()
T41C4 1935:785.452 - 0.661ms returns FALSE
T41C4 1935:787.792 JLINK_IsHalted()
T41C4 1935:788.480 - 0.703ms returns FALSE
T41C4 1935:789.863 JLINK_IsHalted()
T41C4 1935:790.487 - 0.641ms returns FALSE
T41C4 1935:791.780 JLINK_IsHalted()
T41C4 1935:792.411 - 0.649ms returns FALSE
T41C4 1935:793.830 JLINK_IsHalted()
T41C4 1935:794.512 - 0.696ms returns FALSE
T41C4 1935:795.773 JLINK_IsHalted()
T41C4 1935:796.459 - 0.700ms returns FALSE
T41C4 1935:798.820 JLINK_IsHalted()
T41C4 1935:799.510 - 0.705ms returns FALSE
T41C4 1935:800.812 JLINK_IsHalted()
T41C4 1935:807.307   CPU_ReadMem(2 bytes @ 0x20000000)
T41C4 1935:808.016 - 7.221ms returns TRUE
T41C4 1935:808.050 JLINK_ReadReg(R15 (PC))
T41C4 1935:808.077 - 0.039ms returns 0x20000000
T41C4 1935:808.103 JLINK_ClrBPEx(BPHandle = 0x00000009)
T41C4 1935:808.128 - 0.037ms returns 0x00
T41C4 1935:808.154 JLINK_ReadReg(R0)
T41C4 1935:808.179 - 0.037ms returns 0x00000000
T41C4 1935:808.529 JLINK_WriteMem(0x20000718, 0x00E8 Bytes, ...)
T41C4 1935:808.558   Data:  61 63 6B 65 74 00 00 00 50 61 63 6B 65 74 20 77 ...
T41C4 1935:808.601   CPU_WriteMem(232 bytes @ 0x20000718)
T41C4 1935:812.344 - 3.833ms returns 0xE8
T41C4 1935:812.378 JLINK_WriteMem(0x20000800, 0x0400 Bytes, ...)
T41C4 1935:812.404   Data:  59 F9 04 E0 42 46 DD E9 01 01 FE F7 53 F9 00 20 ...
T41C4 1935:812.445   CPU_WriteMem(1024 bytes @ 0x20000800)
T41C4 1935:826.769 - 14.411ms returns 0x400
T41C4 1935:826.808 JLINK_WriteMem(0x20000C00, 0x0400 Bytes, ...)
T41C4 1935:826.834   Data:  33 46 08 22 07 A9 28 46 00 F0 E0 F9 08 36 0A 98 ...
T41C4 1935:826.877   CPU_WriteMem(1024 bytes @ 0x20000C00)
T41C4 1935:841.273 - 14.585ms returns 0x400
T41C4 1935:841.483 JLINK_WriteMem(0x20001000, 0x0400 Bytes, ...)
T41C4 1935:841.612   Data:  82 68 51 60 82 68 11 60 70 47 00 00 70 B5 04 46 ...
T41C4 1935:841.818   CPU_WriteMem(1024 bytes @ 0x20001000)
T41C4 1935:856.916 - 15.550ms returns 0x400
T41C4 1935:857.125 JLINK_WriteMem(0x20001400, 0x0318 Bytes, ...)
T41C4 1935:857.252   Data:  42 F8 23 10 00 BF 4F F4 80 30 0C 49 08 60 0C 49 ...
T41C4 1935:857.461   CPU_WriteMem(792 bytes @ 0x20001400)
T41C4 1935:869.230 - 12.226ms returns 0x318
T41C4 1935:869.455 JLINK_WriteReg(R0, 0x00002000)
T41C4 1935:869.592 - 0.199ms returns 0x00
T41C4 1935:869.721 JLINK_WriteReg(R1, 0x00001000)
T41C4 1935:869.853 - 0.201ms returns 0x00
T41C4 1935:869.991 JLINK_WriteReg(R2, 0x20000718)
T41C4 1935:870.112 - 0.181ms returns 0x00
T41C4 1935:870.244 JLINK_WriteReg(R3, 0x00000000)
T41C4 1935:870.366 - 0.182ms returns 0x00
T41C4 1935:870.494 JLINK_WriteReg(R4, 0x00000000)
T41C4 1935:870.615 - 0.180ms returns 0x00
T41C4 1935:870.741 JLINK_WriteReg(R5, 0x00000000)
T41C4 1935:870.862 - 0.181ms returns 0x00
T41C4 1935:870.988 JLINK_WriteReg(R6, 0x00000000)
T41C4 1935:871.109 - 0.180ms returns 0x00
T41C4 1935:871.238 JLINK_WriteReg(R7, 0x00000000)
T41C4 1935:871.359 - 0.180ms returns 0x00
T41C4 1935:871.485 JLINK_WriteReg(R8, 0x00000000)
T41C4 1935:871.605 - 0.180ms returns 0x00
T41C4 1935:871.731 JLINK_WriteReg(R9, 0x20000704)
T41C4 1935:871.851 - 0.180ms returns 0x00
T41C4 1935:871.977 JLINK_WriteReg(R10, 0x00000000)
T41C4 1935:872.098 - 0.181ms returns 0x00
T41C4 1935:872.228 JLINK_WriteReg(R11, 0x00000000)
T41C4 1935:872.351 - 0.183ms returns 0x00
T41C4 1935:872.477 JLINK_WriteReg(R12, 0x00000000)
T41C4 1935:872.597 - 0.180ms returns 0x00
T41C4 1935:872.724 JLINK_WriteReg(R13 (SP), 0x20002000)
T41C4 1935:872.848 - 0.183ms returns 0x00
T41C4 1935:872.975 JLINK_WriteReg(R14, 0x20000001)
T41C4 1935:873.095 - 0.180ms returns 0x00
T41C4 1935:873.225 JLINK_WriteReg(R15 (PC), 0x200001DC)
T41C4 1935:873.346 - 0.181ms returns 0x00
T41C4 1935:873.472 JLINK_WriteReg(XPSR, 0x01000000)
T41C4 1935:873.594 - 0.181ms returns 0x00
T41C4 1935:873.719 JLINK_WriteReg(MSP, 0x20002000)
T41C4 1935:873.840 - 0.180ms returns 0x00
T41C4 1935:873.966 JLINK_WriteReg(PSP, 0x20002000)
T41C4 1935:874.087 - 0.181ms returns 0x00
T41C4 1935:874.217 JLINK_WriteReg(CFBP, 0x00000000)
T41C4 1935:874.338 - 0.181ms returns 0x00
T41C4 1935:874.467   JLINK_SetBPEx(Addr = 0x20000000, Type = 0xFFFFFFF2)
T41C4 1935:874.651 - 0.246ms returns 0x0000000A
T41C4 1935:874.778 JLINK_Go()
T41C4 1935:874.929   CPU_ReadMem(4 bytes @ 0xE0001000)
T41C4 1935:882.550 - 7.795ms
T41C4 1935:882.591 JLINK_IsHalted()
T41C4 1935:883.330 - 0.757ms returns FALSE
T41C4 1935:889.543 JLINK_IsHalted()
T41C4 1935:890.567 - 1.055ms returns FALSE
T41C4 1935:892.506 JLINK_IsHalted()
T41C4 1935:893.523 - 1.048ms returns FALSE
T41C4 1935:895.289 JLINK_IsHalted()
T41C4 1935:896.098 - 0.830ms returns FALSE
T41C4 1935:897.278 JLINK_IsHalted()
T41C4 1935:898.088 - 0.826ms returns FALSE
T41C4 1935:901.289 JLINK_IsHalted()
T41C4 1935:902.089 - 0.814ms returns FALSE
T41C4 1935:904.121 JLINK_IsHalted()
T41C4 1935:904.935 - 0.833ms returns FALSE
T41C4 1935:906.308 JLINK_IsHalted()
T41C4 1935:907.112 - 0.827ms returns FALSE
T41C4 1935:909.145 JLINK_IsHalted()
T41C4 1935:909.977 - 0.850ms returns FALSE
T41C4 1935:913.094 JLINK_IsHalted()
T41C4 1935:913.897 - 0.820ms returns FALSE
T41C4 1935:915.092 JLINK_IsHalted()
T41C4 1935:915.901 - 0.827ms returns FALSE
T41C4 1935:917.052 JLINK_IsHalted()
T41C4 1935:917.817 - 0.781ms returns FALSE
T41C4 1935:919.082 JLINK_IsHalted()
T41C4 1935:919.877 - 0.812ms returns FALSE
T41C4 1935:922.091 JLINK_IsHalted()
T41C4 1935:922.897 - 0.822ms returns FALSE
T41C4 1935:924.067 JLINK_IsHalted()
T41C4 1935:930.599   CPU_ReadMem(2 bytes @ 0x20000000)
T41C4 1935:931.214 - 7.161ms returns TRUE
T41C4 1935:931.245 JLINK_ReadReg(R15 (PC))
T41C4 1935:931.271 - 0.039ms returns 0x20000000
T41C4 1935:931.297 JLINK_ClrBPEx(BPHandle = 0x0000000A)
T41C4 1935:931.323 - 0.037ms returns 0x00
T41C4 1935:931.348 JLINK_ReadReg(R0)
T41C4 1935:931.373 - 0.037ms returns 0x00000000
T41C4 1935:931.861 JLINK_WriteMem(0x20000718, 0x00E8 Bytes, ...)
T41C4 1935:931.891   Data:  06 46 1C 48 D0 F8 00 80 05 68 2C 46 04 E0 B4 42 ...
T41C4 1935:931.933   CPU_WriteMem(232 bytes @ 0x20000718)
T41C4 1935:935.590 - 3.744ms returns 0xE8
T41C4 1935:935.621 JLINK_WriteMem(0x20000800, 0x0400 Bytes, ...)
T41C4 1935:935.646   Data:  CB FD 68 46 00 F0 64 F8 04 46 0C B9 04 27 05 E0 ...
T41C4 1935:935.685   CPU_WriteMem(1024 bytes @ 0x20000800)
T41C4 1935:950.186 - 14.602ms returns 0x400
T41C4 1935:950.245 JLINK_WriteMem(0x20000C00, 0x0400 Bytes, ...)
T41C4 1935:950.274   Data:  FF FF FF FF FF FF FF FF FF FF FF FF FF FF FF FF ...
T41C4 1935:950.321   CPU_WriteMem(1024 bytes @ 0x20000C00)
T41C4 1935:964.693 - 14.483ms returns 0x400
T41C4 1935:964.752 JLINK_WriteMem(0x20001000, 0x0400 Bytes, ...)
T41C4 1935:964.781   Data:  FF FF FF FF FF FF FF FF FF FF FF FF FF FF FF FF ...
T41C4 1935:964.830   CPU_WriteMem(1024 bytes @ 0x20001000)
T41C4 1935:979.162 - 14.434ms returns 0x400
T41C4 1935:979.207 JLINK_WriteMem(0x20001400, 0x0318 Bytes, ...)
T41C4 1935:979.233   Data:  FF FF FF FF FF FF FF FF FF FF FF FF FF FF FF FF ...
T41C4 1935:979.278   CPU_WriteMem(792 bytes @ 0x20001400)
T41C4 1935:990.398 - 11.210ms returns 0x318
T41C4 1935:990.750 JLINK_WriteReg(R0, 0x00003000)
T41C4 1935:990.787 - 0.052ms returns 0x00
T41C4 1935:990.816 JLINK_WriteReg(R1, 0x00000474)
T41C4 1935:990.841 - 0.037ms returns 0x00
T41C4 1935:990.867 JLINK_WriteReg(R2, 0x20000718)
T41C4 1935:990.892 - 0.037ms returns 0x00
T41C4 1935:990.917 JLINK_WriteReg(R3, 0x00000000)
T41C4 1935:990.942 - 0.036ms returns 0x00
T41C4 1935:990.967 JLINK_WriteReg(R4, 0x00000000)
T41C4 1935:990.992 - 0.037ms returns 0x00
T41C4 1935:991.017 JLINK_WriteReg(R5, 0x00000000)
T41C4 1935:991.042 - 0.037ms returns 0x00
T41C4 1935:991.067 JLINK_WriteReg(R6, 0x00000000)
T41C4 1935:991.092 - 0.037ms returns 0x00
T41C4 1935:991.118 JLINK_WriteReg(R7, 0x00000000)
T41C4 1935:991.142 - 0.036ms returns 0x00
T41C4 1935:991.168 JLINK_WriteReg(R8, 0x00000000)
T41C4 1935:991.192 - 0.037ms returns 0x00
T41C4 1935:991.218 JLINK_WriteReg(R9, 0x20000704)
T41C4 1935:991.242 - 0.037ms returns 0x00
T41C4 1935:991.268 JLINK_WriteReg(R10, 0x00000000)
T41C4 1935:991.293 - 0.037ms returns 0x00
T41C4 1935:991.318 JLINK_WriteReg(R11, 0x00000000)
T41C4 1935:991.343 - 0.036ms returns 0x00
T41C4 1935:991.368 JLINK_WriteReg(R12, 0x00000000)
T41C4 1935:991.393 - 0.037ms returns 0x00
T41C4 1935:991.418 JLINK_WriteReg(R13 (SP), 0x20002000)
T41C4 1935:991.443 - 0.037ms returns 0x00
T41C4 1935:991.469 JLINK_WriteReg(R14, 0x20000001)
T41C4 1935:991.493 - 0.037ms returns 0x00
T41C4 1935:991.519 JLINK_WriteReg(R15 (PC), 0x200001DC)
T41C4 1935:991.544 - 0.037ms returns 0x00
T41C4 1935:991.569 JLINK_WriteReg(XPSR, 0x01000000)
T41C4 1935:991.594 - 0.037ms returns 0x00
T41C4 1935:991.619 JLINK_WriteReg(MSP, 0x20002000)
T41C4 1935:991.644 - 0.037ms returns 0x00
T41C4 1935:991.669 JLINK_WriteReg(PSP, 0x20002000)
T41C4 1935:991.694 - 0.037ms returns 0x00
T41C4 1935:991.719 JLINK_WriteReg(CFBP, 0x00000000)
T41C4 1935:991.744 - 0.036ms returns 0x00
T41C4 1935:991.770   JLINK_SetBPEx(Addr = 0x20000000, Type = 0xFFFFFFF2)
T41C4 1935:991.812 - 0.055ms returns 0x0000000B
T41C4 1935:991.838 JLINK_Go()
T41C4 1935:991.869   CPU_ReadMem(4 bytes @ 0xE0001000)
T41C4 1935:998.638 - 6.816ms
T41C4 1935:998.668 JLINK_IsHalted()
T41C4 1935:999.479 - 0.824ms returns FALSE
T41C4 1936:006.679 JLINK_IsHalted()
T41C4 1936:007.706 - 1.059ms returns FALSE
T41C4 1936:008.927 JLINK_IsHalted()
T41C4 1936:009.636 - 0.736ms returns FALSE
T41C4 1936:011.735 JLINK_IsHalted()
T41C4 1936:018.330   CPU_ReadMem(2 bytes @ 0x20000000)
T41C4 1936:019.010 - 7.292ms returns TRUE
T41C4 1936:019.045 JLINK_ReadReg(R15 (PC))
T41C4 1936:019.072 - 0.040ms returns 0x20000000
T41C4 1936:019.100 JLINK_ClrBPEx(BPHandle = 0x0000000B)
T41C4 1936:019.125 - 0.038ms returns 0x00
T41C4 1936:019.152 JLINK_ReadReg(R0)
T41C4 1936:019.177 - 0.038ms returns 0x00000000
T41C4 1936:019.205 JLINK_WriteReg(R0, 0x00000002)
T41C4 1936:019.232 - 0.038ms returns 0x00
T41C4 1936:019.258 JLINK_WriteReg(R1, 0x00000474)
T41C4 1936:019.283 - 0.037ms returns 0x00
T41C4 1936:019.309 JLINK_WriteReg(R2, 0x20000718)
T41C4 1936:019.335 - 0.037ms returns 0x00
T41C4 1936:019.361 JLINK_WriteReg(R3, 0x00000000)
T41C4 1936:019.386 - 0.037ms returns 0x00
T41C4 1936:019.412 JLINK_WriteReg(R4, 0x00000000)
T41C4 1936:019.437 - 0.037ms returns 0x00
T41C4 1936:019.463 JLINK_WriteReg(R5, 0x00000000)
T41C4 1936:019.488 - 0.037ms returns 0x00
T41C4 1936:019.514 JLINK_WriteReg(R6, 0x00000000)
T41C4 1936:019.541 - 0.041ms returns 0x00
T41C4 1936:019.569 JLINK_WriteReg(R7, 0x00000000)
T41C4 1936:019.594 - 0.037ms returns 0x00
T41C4 1936:019.620 JLINK_WriteReg(R8, 0x00000000)
T41C4 1936:019.645 - 0.038ms returns 0x00
T41C4 1936:019.673 JLINK_WriteReg(R9, 0x20000704)
T41C4 1936:019.697 - 0.036ms returns 0x00
T41C4 1936:019.723 JLINK_WriteReg(R10, 0x00000000)
T41C4 1936:019.748 - 0.037ms returns 0x00
T41C4 1936:019.774 JLINK_WriteReg(R11, 0x00000000)
T41C4 1936:019.799 - 0.037ms returns 0x00
T41C4 1936:019.825 JLINK_WriteReg(R12, 0x00000000)
T41C4 1936:019.849 - 0.036ms returns 0x00
T41C4 1936:019.875 JLINK_WriteReg(R13 (SP), 0x20002000)
T41C4 1936:019.901 - 0.037ms returns 0x00
T41C4 1936:019.926 JLINK_WriteReg(R14, 0x20000001)
T41C4 1936:019.951 - 0.037ms returns 0x00
